# HZ S RI R 50
136000000 -0.137604672 0.126781032
136380000 -0.082421848 0.159570032
136760000 -0.031591528 0.183005056
137140000 0.019457536 0.19616344
137520000 0.068096528 0.20382792
137900000 0.111341656 0.20411944
138280000 0.15485296 0.205303648
138660000 0.191796976 0.19747912
139040000 0.228758384 0.198090144
139420000 0.262032928 0.190747888
139800000 0.298788896 0.180129904
140180000 0.32519072 0.167059856
140560000 0.345408032 0.15372416
140940000 0.366897056 0.143363136
141320000 0.385885632 0.138351072
141700000 0.404221184 0.136619648
142080000 0.425500192 0.129855928
142460000 0.449977536 0.125028624
142840000 0.471738368 0.116850048
143220000 0.495129152 0.113091504
143600000 0.519879648 0.103484752
143980000 0.540194432 0.092176664
144360000 0.565286272 0.076507984
144740000 0.589137024 0.061284008
145120000 0.610441728 0.040844732
145500000 0.625472832 0.019410546
145880000 0.636892736 -0.002613339
146260000 0.647073856 -0.024263274
146640000 0.656347328 -0.047332088
147020000 0.65854176 -0.06579224
147400000 0.66126016 -0.082558592
147780000 0.660127424 -0.100606056
148160000 0.661321536 -0.114883472
148540000 0.661171392 -0.12798396
148920000 0.660006528 -0.136435968
149300000 0.659792448 -0.14511456
149680000 0.66093824 -0.152892064
150060000 0.665416448 -0.160389408
150440000 0.67013952 -0.168620096
150820000 0.672692864 -0.176906528
151200000 0.677177216 -0.186775856
151580000 0.681602112 -0.1965588
151960000 0.68790752 -0.207166336
152340000 0.693450688 -0.221691424
152720000 0.706158848 -0.243328272
153100000 0.696264448 -0.254544256
153480000 0.69449248 -0.27127616
153860000 0.68721504 -0.2864144
154240000 0.678678336 -0.299863744
154620000 0.66791456 -0.308968928
155000000 0.657745856 -0.316601024
155380000 0.649667328 -0.3201504
155760000 0.644202816 -0.324149952
156140000 0.64044224 -0.32752288
156520000 0.63493952 -0.331608288
156900000 0.630918016 -0.33783712
157280000 0.624704384 -0.342088256
157660000 0.618109184 -0.347702784
158040000 0.609993728 -0.350901824
158420000 0.600542336 -0.35311696
158800000 0.592564672 -0.35440032
159180000 0.583965568 -0.352633952
159560000 0.576796416 -0.352023712
159940000 0.570149376 -0.349767584
160320000 0.563327808 -0.344910624
160700000 0.558834944 -0.339297472
161080000 0.55306368 -0.33290272
161460000 0.549786176 -0.326048608
161840000 0.549388416 -0.31917632
162220000 0.548476608 -0.311011808
162600000 0.549166848 -0.30193536
162980000 0.55183616 -0.294821312
163360000 0.555057344 -0.287523424
163740000 0.56202592 -0.28025056
164120000 0.570130752 -0.272942304
164500000 0.577407488 -0.268756736
164880000 0.586898816 -0.266794656
165260000 0.595007808 -0.267109936
165640000 0.60555808 -0.268809152
166020000 0.6108448 -0.269338016
166400000 0.61601984 -0.270933152
166780000 0.621621632 -0.271149888
167160000 0.628796032 -0.27282752
167540000 0.63453504 -0.27293792
167920000 0.641444928 -0.272844576
168300000 0.649264384 -0.274219648
168680000 0.65802496 -0.276503168
169060000 0.665905984 -0.278422208
169440000 0.675380352 -0.282392032
169820000 0.684406592 -0.287278752
170200000 0.692627008 -0.2936984
170580000 0.700376256 -0.300842048
170960000 0.70774752 -0.308798496
171340000 0.713939968 -0.317507424
171720000 0.719143104 -0.3263304
172100000 0.723746368 -0.335934624
172480000 0.727513344 -0.346207296
172860000 0.730295616 -0.355045696
173240000 0.732041344 -0.36463248
173620000 0.73282656 -0.373977824
174000000 0.733739712 -0.382981536
