# HZ S RI R 50
136000000 -0.32867584 -0.717512576
136380000 -0.350071648 -0.69388128
136760000 -0.371560288 -0.666919424
137140000 -0.390142752 -0.634195776
137520000 -0.408401664 -0.60029792
137900000 -0.424955168 -0.562576768
138280000 -0.436180928 -0.521086752
138660000 -0.441952768 -0.479145888
139040000 -0.442609056 -0.436461344
139420000 -0.4413616 -0.388718784
139800000 -0.431959808 -0.344268992
140180000 -0.419104256 -0.306115232
140560000 -0.404836992 -0.26952544
140940000 -0.384358464 -0.230343712
141320000 -0.366313632 -0.19866968
141700000 -0.345235392 -0.16136104
142080000 -0.319961728 -0.13012388
142460000 -0.2910136 -0.100597528
142840000 -0.266933264 -0.074174472
143220000 -0.23289792 -0.04744434
143600000 -0.200553072 -0.023807302
143980000 -0.163004704 -0.002859845
144360000 -0.127427072 0.018354242
144740000 -0.08281444 0.024672794
145120000 -0.04461856 0.029794352
145500000 -0.007860563 0.031306182
145880000 0.026873694 0.03185359
146260000 0.05970444 0.02579042
146640000 0.09083132 0.019887664
147020000 0.120643992 0.014122189
147400000 0.148574736 0.007157421
147780000 0.176290688 -0.00256362
148160000 0.203895136 -0.015212691
148540000 0.2292728 -0.029009314
148920000 0.256126224 -0.04180152
149300000 0.280222848 -0.060367936
149680000 0.29966 -0.082209784
150060000 0.317636448 -0.106117856
150440000 0.330978016 -0.13322812
150820000 0.33342768 -0.159634064
151200000 0.33680112 -0.178592896
151580000 0.338384896 -0.19721936
151960000 0.338990592 -0.21627528
152340000 0.332906304 -0.233169984
152720000 0.334079296 -0.240896784
153100000 0.32507728 -0.2591508
153480000 0.317266784 -0.268954016
153860000 0.307500544 -0.273207008
154240000 0.301425088 -0.276837248
154620000 0.296764 -0.278659648
155000000 0.29249408 -0.277149632
155380000 0.292948832 -0.274414208
155760000 0.295224992 -0.271549088
156140000 0.30294 -0.27319152
156520000 0.305095744 -0.279342656
156900000 0.305649248 -0.285447328
157280000 0.3033832 -0.290460064
157660000 0.2997592 -0.295300224
158040000 0.295025408 -0.293581088
158420000 0.289037824 -0.293918272
158800000 0.285895424 -0.287361856
159180000 0.285694688 -0.281165984
159560000 0.285136672 -0.275384
159940000 0.286439616 -0.268187232
160320000 0.290000064 -0.258295232
160700000 0.294608608 -0.25189992
161080000 0.300035648 -0.24039352
161460000 0.30935536 -0.229488704
161840000 0.32170384 -0.219677776
162220000 0.335723584 -0.214595408
162600000 0.356958816 -0.202369488
162980000 0.376123712 -0.19751664
163360000 0.401137696 -0.198360736
163740000 0.424640128 -0.204979888
164120000 0.450259168 -0.21755864
164500000 0.470058624 -0.231707424
164880000 0.482843648 -0.2485844
165260000 0.492972096 -0.26595312
165640000 0.497677952 -0.279946976
166020000 0.503922528 -0.293120224
166400000 0.514666432 -0.299217664
166780000 0.525751008 -0.30957424
167160000 0.53698112 -0.323086368
167540000 0.545364352 -0.341598528
167920000 0.557578752 -0.357897536
168300000 0.564919232 -0.377677952
168680000 0.5690224 -0.398063008
169060000 0.569252224 -0.41877024
169440000 0.57032416 -0.438889344
169820000 0.567657856 -0.459237792
170200000 0.56268224 -0.476414048
170580000 0.556322752 -0.493134848
170960000 0.549688768 -0.508568896
171340000 0.542243456 -0.523486784
171720000 0.533515104 -0.534960384
172100000 0.524953312 -0.546432704
172480000 0.516291072 -0.556615296
172860000 0.5077296 -0.565674176
173240000 0.499101536 -0.572414592
173620000 0.491354016 -0.578847168
174000000 0.483672864 -0.584209984
