# HZ S RI R 50
400000000 -0.306511104 -0.408554912
401200000 -0.316882048 -0.400383936
402400000 -0.324974304 -0.393194048
403600000 -0.33158752 -0.3834992
404800000 -0.33946064 -0.374724224
406000000 -0.346223872 -0.3638112
407200000 -0.353887488 -0.352078816
408400000 -0.360214656 -0.34003152
409600000 -0.366320512 -0.3265768
410800000 -0.371542752 -0.313442048
412000000 -0.375504096 -0.298340096
413200000 -0.378138336 -0.283540128
414400000 -0.37947408 -0.269153056
415600000 -0.37995168 -0.254931056
416800000 -0.379720448 -0.240363456
418000000 -0.37992048 -0.22464192
419200000 -0.379265504 -0.207702176
420400000 -0.376655712 -0.188969088
421600000 -0.372534752 -0.17039264
422800000 -0.366325536 -0.150634304
424000000 -0.356443328 -0.130464912
425200000 -0.343756736 -0.110325112
426400000 -0.328003552 -0.09175852
427600000 -0.310299072 -0.074574176
428800000 -0.289666752 -0.058511472
430000000 -0.267293904 -0.045546396
431200000 -0.242985792 -0.032992542
432400000 -0.217574768 -0.023191526
433600000 -0.191875952 -0.014057063
434800000 -0.161611472 -0.007279556
436000000 -0.130228608 -0.003576761
437200000 -0.09867944 -0.00342672
438400000 -0.065955012 -0.007220185
439600000 -0.03203388 -0.012985268
440800000 0.000566451 -0.02571608
442000000 0.031778832 -0.04216284
443200000 0.060344376 -0.06188354
444400000 0.086386416 -0.086522896
445600000 0.107092288 -0.109691568
446800000 0.124049552 -0.135921824
448000000 0.140244528 -0.16284152
449200000 0.15160368 -0.189720944
450400000 0.160320144 -0.21656856
451600000 0.166913936 -0.241403056
452800000 0.17152056 -0.267717456
454000000 0.174936704 -0.29125744
455200000 0.178001488 -0.317196896
456400000 0.177818992 -0.344012896
457600000 0.173940688 -0.370768224
458800000 0.168257152 -0.395354496
460000000 0.15808288 -0.41593264
461200000 0.148697664 -0.435145568
462400000 0.138626352 -0.452634048
463600000 0.1285014 -0.46918384
464800000 0.118085688 -0.483431104
466000000 0.10573352 -0.499516416
467200000 0.095381272 -0.512853152
468400000 0.084441824 -0.5253256
469600000 0.074376136 -0.535855296
470800000 0.059695756 -0.547360576
472000000 0.04763244 -0.556233792
473200000 0.033601952 -0.565098432
474400000 0.020254706 -0.574820736
475600000 0.008150591 -0.579638272
476800000 -0.004566645 -0.584446016
478000000 -0.018736112 -0.591373248
479200000 -0.031304288 -0.595741376
480400000 -0.042366076 -0.598991168
481600000 -0.053905956 -0.60220576
482800000 -0.063702168 -0.6033776
484000000 -0.073668552 -0.605072256
485200000 -0.083499928 -0.607015616
486400000 -0.09363152 -0.609636288
487600000 -0.103365984 -0.609183488
488800000 -0.112382784 -0.611005632
490000000 -0.121408 -0.611331968
491200000 -0.129435552 -0.61199968
492400000 -0.137650512 -0.613348096
493600000 -0.146090688 -0.614831424
494800000 -0.155668016 -0.614307392
496000000 -0.164519168 -0.613400704
497200000 -0.172379232 -0.614392064
498400000 -0.180811792 -0.612297728
499600000 -0.188457616 -0.612639296
500800000 -0.196332768 -0.61076064
502000000 -0.205639504 -0.610520064
503200000 -0.212037184 -0.60677248
504400000 -0.217830464 -0.6054624
505600000 -0.224474912 -0.603121856
506800000 -0.230826704 -0.60131584
508000000 -0.234863984 -0.598971072
509200000 -0.238583872 -0.598097216
510400000 -0.242494176 -0.597599552
511600000 -0.246232704 -0.597787712
512800000 -0.251020992 -0.59880672
514000000 -0.255195744 -0.599243328
515200000 -0.259827344 -0.601268352
516400000 -0.266327056 -0.602072832
517600000 -0.271574528 -0.604239616
518800000 -0.278061664 -0.605961472
520000000 -0.28424224 -0.609117248
